T4EE0 000:012.520   SEGGER J-Link V9.42 Log File
T4EE0 000:012.641   DLL Compiled: May  6 2026 12:25:27
T4EE0 000:012.646   Logging started @ 2026-05-12 16:32
T4EE0 000:012.652   Process: C:\Users\yuang\AppData\Local\Keil_v5\UV4\UV4.exe
T4EE0 000:012.665 - 12.657ms 
T4EE0 000:012.674 JLINK_SetWarnOutHandler(...)
T4EE0 000:012.679 - 0.006ms 
T4EE0 000:012.688 JLINK_OpenEx(...)
T4EE0 000:016.960   Firmware: J-Link V9 compiled May  7 2021 16:26:12
T4EE0 000:019.064   Firmware: J-Link V9 compiled May  7 2021 16:26:12
T4EE0 000:019.181   Decompressing FW timestamp took 89 us
T4EE0 000:028.101   Hardware: V9.40
T4EE0 000:028.114   S/N: 69401661
T4EE0 000:028.121   OEM: SEGGER
T4EE0 000:028.129   Feature(s): RDI, GDB, FlashDL, FlashBP, JFlash
T4EE0 000:030.098   Bootloader: (FW returned invalid version)
T4EE0 000:032.277   TELNET listener socket opened on port 19021
T4EE0 000:032.417   WEBSRV WEBSRV_Init(): Starting webserver thread(s)
T4EE0 000:032.577   WEBSRV Webserver running on local port 19080
T4EE0 000:032.758   Looking for J-Link GUI Server exe at: C:\Users\yuang\AppData\Local\Keil_v5\ARM\Segger\JLinkGUIServer.exe
T4EE0 000:032.905   Looking for J-Link GUI Server exe at: C:\Program Files\SEGGER\JLink_V942\JLinkGUIServer.exe
T4EE0 000:032.954   Forking J-Link GUI Server: C:\Program Files\SEGGER\JLink_V942\JLinkGUIServer.exe
T4EE0 000:058.711   J-Link GUI Server info: "J-Link GUI server V9.42 "
T4EE0 000:062.488 - 49.785ms returns "O.K."
T4EE0 000:062.524 JLINK_GetEmuCaps()
T4EE0 000:062.533 - 0.006ms returns 0xB9FF7BBF
T4EE0 000:062.542 JLINK_TIF_GetAvailable(...)
T4EE0 000:063.219 - 0.676ms 
T4EE0 000:063.238 JLINK_SetErrorOutHandler(...)
T4EE0 000:063.244 - 0.005ms 
T4EE0 000:063.278 JLINK_ExecCommand("ProjectFile = "D:\Project\H750\H7RTOS\MDK-ARM\JLinkSettings.ini"", ...). 
T4EE0 000:074.327   XML file found at: C:\Users\yuang\AppData\Roaming\SEGGER\JLinkDevices\ST\STM32H750VB\H7_W25Q64_BORING.xml
T4EE0 000:075.076   C:\Users\yuang\AppData\Roaming\SEGGER\JLinkDevices\ST\STM32H750VB\H7_W25Q64_BORING.xml evaluated successfully.
T4EE0 000:075.089     Device entry created:  STM32H750_W25Q64
T4EE0 000:075.096       ChipInfo:
T4EE0 000:075.104         Vendor:          ST
T4EE0 000:075.112         Name:            STM32H750_W25Q64
T4EE0 000:075.124         Core:            JLINK_CORE_CORTEX_M7
T4EE0 000:075.134         WorkRAMAddr:     0x20000000
T4EE0 000:075.142         WorkRAMSize:     0x00020000
T4EE0 000:075.151       FlashBankInfo:
T4EE0 000:075.159         Name:            W25Q64 QSPI
T4EE0 000:075.167         BaseAddr:        0x90000000
T4EE0 000:075.262         AlwaysPresent:   1
T4EE0 000:075.271         LoaderInfo:
T4EE0 000:075.279           Name:            W25Q64_QSPI
T4EE0 000:075.287           MaxSize:         0x00800000
T4EE0 000:075.295           Loader:          C:\Users\yuang\AppData\Roaming\SEGGER\JLinkDevices\ST\STM32H750VB\H7_W25Q64_BORING.FLM
T4EE0 000:075.303           LoaderType:      FLASH_ALGO_TYPE_OPEN
T4EE0 000:075.646   Ref file found at: C:\Users\yuang\AppData\Local\Keil_v5\ARM\Segger\JLinkDevices.ref
T4EE0 000:075.747   REF file references invalid XML file: C:\Program Files\SEGGER\JLink_V942\JLinkDevices.xml
T4EE0 000:076.023 - 12.746ms returns 0x00
T4EE0 000:076.060 JLINK_ExecCommand("Device = STM32H750VBTx", ...). 
T4EE0 000:076.811   Flash bank @ 0x08000000: SFL: Parsing sectorization info from ELF file
T4EE0 000:076.821     FlashDevice.SectorInfo[0]: .SectorSize = 0x00020000, .SectorStartAddr = 0x00000000
T4EE0 000:076.829   FlashBank @0x08000000: Sectorization info from SFL ELF file ignored because sectorization override from DLL / XML file is active.
T4EE0 000:076.933   Flash bank @ 0x90000000: SFL: Parsing sectorization info from ELF file
T4EE0 000:076.941     FlashDevice.SectorInfo[0]: .SectorSize = 0x00010000, .SectorStartAddr = 0x00000000
T4EE0 000:083.995   Device "STM32H750VB" selected.
T4EE0 000:084.614 - 8.553ms returns 0x00
T4EE0 000:084.641   ERROR: Unknown command
T4EE0 000:084.651 JLINK_GetHardwareVersion()
T4EE0 000:084.657 - 0.005ms returns 94000
T4EE0 000:084.693 JLINK_GetDLLVersion()
T4EE0 000:084.699 - 0.006ms returns 94200
T4EE0 000:084.705 JLINK_GetOEMString(...)
T4EE0 000:084.712 JLINK_GetFirmwareString(...)
T4EE0 000:084.718 - 0.005ms 
T4EE0 000:084.737 JLINK_GetDLLVersion()
T4EE0 000:084.742 - 0.005ms returns 94200
T4EE0 000:084.748 JLINK_GetCompileDateTime()
T4EE0 000:084.753 - 0.005ms 
T4EE0 000:084.763 JLINK_GetFirmwareString(...)
T4EE0 000:084.768 - 0.005ms 
T4EE0 000:084.777 JLINK_GetHardwareVersion()
T4EE0 000:084.782 - 0.005ms returns 94000
T4EE0 000:084.792 JLINK_GetSN()
T4EE0 000:084.797 - 0.005ms returns 69401661
T4EE0 000:084.805 JLINK_GetOEMString(...)
T4EE0 000:084.820 JLINK_TIF_Select(JLINKARM_TIF_SWD)
T4EE0 000:087.411 - 2.592ms returns 0x00
T4EE0 000:087.424 JLINK_HasError()
T4EE0 000:087.440 JLINK_SetSpeed(5000)
T4EE0 000:088.035 - 0.596ms 
T4EE0 000:088.050 JLINK_GetId()
T4EE0 000:088.949   ConfigTargetSettings() start
T4EE0 000:088.991    J-Link Script File: Executing ConfigTargetSettings()
T4EE0 000:089.048   ConfigTargetSettings() end - Took 60us
T4EE0 000:089.072   InitTarget() start
T4EE0 000:089.089    J-Link Script File: Executing InitTarget()
T4EE0 000:089.714   SWD selected. Executing JTAG -> SWD switching sequence.
T4EE0 000:093.936   DAP initialized successfully.
T4EE0 000:120.185   InitTarget() end - Took 31.0ms
T4EE0 000:121.704   Found SW-DP with ID 0x6BA02477
T4EE0 000:126.387   DPIDR: 0x6BA02477
T4EE0 000:126.403   CoreSight SoC-400 or earlier
T4EE0 000:126.414   Scanning AP map to find all available APs
T4EE0 000:129.536   AP[3]: Stopped AP scan as end of AP map has been reached
T4EE0 000:129.584   AP[0]: AHB-AP (IDR: 0x84770001, ADDR: 0x00000000)
T4EE0 000:129.605   AP[1]: AHB-AP (IDR: 0x84770001, ADDR: 0x01000000)
T4EE0 000:129.626   AP[2]: APB-AP (IDR: 0x54770002, ADDR: 0x02000000)
T4EE0 000:129.650   Iterating through AP map to find AHB-AP to use
T4EE0 000:131.389   AP[0]: Core found
T4EE0 000:131.405   AP[0]: AHB-AP ROM base: 0xE00FE000
T4EE0 000:132.250   CPUID register: 0x411FC271. Implementer code: 0x41 (ARM)
T4EE0 000:133.111   Cache: L1 I/D-cache present
T4EE0 000:133.129   Found Cortex-M7 r1p1, Little endian.
T4EE0 000:134.352   -- Max. mem block: 0x00010E60
T4EE0 000:136.393   CPU_ReadMem(4 bytes @ 0xE000EDF0)
T4EE0 000:137.117   CPU_ReadMem(4 bytes @ 0xE0002000)
T4EE0 000:137.899   FPUnit: 8 code (BP) slots and 0 literal slots
T4EE0 000:137.912   CPU_ReadMem(4 bytes @ 0xE000EDFC)
T4EE0 000:138.619   CPU_WriteMem(4 bytes @ 0xE000EDFC)
T4EE0 000:139.386   CPU_ReadMem(4 bytes @ 0xE0001000)
T4EE0 000:140.109   CPU_WriteMem(4 bytes @ 0xE0001000)
T4EE0 000:141.084   CPU_ReadMem(4 bytes @ 0xE000ED88)
T4EE0 000:141.849   CPU_WriteMem(4 bytes @ 0xE000ED88)
T4EE0 000:142.627   CPU_ReadMem(4 bytes @ 0xE000ED88)
T4EE0 000:143.352   CPU_WriteMem(4 bytes @ 0xE000ED88)
T4EE0 000:144.131   CoreSight components:
T4EE0 000:144.143   ROMTbl[0] @ E00FE000
T4EE0 000:144.151   CPU_ReadMem(64 bytes @ 0xE00FE000)
T4EE0 000:145.199   CPU_ReadMem(32 bytes @ 0xE00FFFE0)
T4EE0 000:146.133   [0][0]: E00FF000 CID B105100D PID 000BB4C7 ROM Table
T4EE0 000:146.145   ROMTbl[1] @ E00FF000
T4EE0 000:146.153   CPU_ReadMem(64 bytes @ 0xE00FF000)
T4EE0 000:147.237   CPU_ReadMem(32 bytes @ 0xE000EFE0)
T4EE0 000:148.162   [1][0]: E000E000 CID B105E00D PID 000BB00C SCS-M7
T4EE0 000:148.175   CPU_ReadMem(32 bytes @ 0xE0001FE0)
T4EE0 000:149.133   [1][1]: E0001000 CID B105E00D PID 000BB002 DWT
T4EE0 000:149.144   CPU_ReadMem(32 bytes @ 0xE0002FE0)
T4EE0 000:150.010   [1][2]: E0002000 CID B105E00D PID 000BB00E FPB-M7
T4EE0 000:150.019   CPU_ReadMem(32 bytes @ 0xE0000FE0)
T4EE0 000:150.920   [1][3]: E0000000 CID B105E00D PID 000BB001 ITM
T4EE0 000:150.948   CPU_ReadMem(32 bytes @ 0xE0041FE0)
T4EE0 000:151.929   [0][1]: E0041000 CID B105900D PID 001BB975 ETM-M7
T4EE0 000:151.953   CPU_ReadMem(32 bytes @ 0xE0043FE0)
T4EE0 000:152.920   [0][2]: E0043000 CID B105900D PID 004BB906 CTI
T4EE0 000:152.934   CPU_WriteMem(4 bytes @ 0xE000ED84)
T4EE0 000:153.760   CPU_ReadMem(4 bytes @ 0xE000ED80)
T4EE0 000:154.538   I-Cache L1: 16 KB, 256 Sets, 32 Bytes/Line, 2-Way
T4EE0 000:154.551   CPU_WriteMem(4 bytes @ 0xE000ED84)
T4EE0 000:155.388   CPU_ReadMem(4 bytes @ 0xE000ED80)
T4EE0 000:156.179   D-Cache L1: 16 KB, 128 Sets, 32 Bytes/Line, 4-Way
T4EE0 000:156.902 - 68.851ms returns 0x6BA02477
T4EE0 000:156.964 JLINK_GetDLLVersion()
T4EE0 000:156.970 - 0.006ms returns 94200
T4EE0 000:156.982 JLINK_CORE_GetFound()
T4EE0 000:156.987 - 0.005ms returns 0xE0100FF
T4EE0 000:156.994 JLINK_GetDebugInfo(0x100 = JLINKARM_ROM_TABLE_ADDR_INDEX)
T4EE0 000:157.001   Value=0xE00FE000
T4EE0 000:157.008 - 0.014ms returns 0
T4EE0 000:157.022 JLINK_GetDebugInfo(0x100 = JLINKARM_ROM_TABLE_ADDR_INDEX)
T4EE0 000:157.027   Value=0xE00FE000
T4EE0 000:157.033 - 0.012ms returns 0
T4EE0 000:157.039 JLINK_GetDebugInfo(0x101 = JLINKARM_DEBUG_INFO_ETM_ADDR_INDEX)
T4EE0 000:157.044   Value=0xE0041000
T4EE0 000:157.051 - 0.012ms returns 0
T4EE0 000:157.062 JLINK_ReadMemEx(0xE0041FD0, 0x20 Bytes, Flags = 0x02000004)
T4EE0 000:157.089   CPU_ReadMem(32 bytes @ 0xE0041FD0)
T4EE0 000:158.035   Data:  04 00 00 00 00 00 00 00 00 00 00 00 00 00 00 00 ...
T4EE0 000:158.049 - 0.986ms returns 32 (0x20)
T4EE0 000:158.057 JLINK_GetDebugInfo(0x102 = JLINKARM_DEBUG_INFO_MTB_ADDR_INDEX)
T4EE0 000:158.062   Value=0x00000000
T4EE0 000:158.069 - 0.012ms returns 0
T4EE0 000:158.075 JLINK_GetDebugInfo(0x103 = JLINKARM_DEBUG_INFO_TPIU_ADDR_INDEX)
T4EE0 000:158.080   Value=0xE00F5000
T4EE0 000:158.087 - 0.012ms returns 0
T4EE0 000:158.093 JLINK_GetDebugInfo(0x104 = JLINKARM_DEBUG_INFO_ITM_ADDR_INDEX)
T4EE0 000:158.098   Value=0xE0000000
T4EE0 000:158.105 - 0.012ms returns 0
T4EE0 000:158.111 JLINK_GetDebugInfo(0x105 = JLINKARM_DEBUG_INFO_DWT_ADDR_INDEX)
T4EE0 000:158.115   Value=0xE0001000
T4EE0 000:158.122 - 0.011ms returns 0
T4EE0 000:158.128 JLINK_GetDebugInfo(0x106 = JLINKARM_DEBUG_INFO_FPB_ADDR_INDEX)
T4EE0 000:158.133   Value=0xE0002000
T4EE0 000:158.140 - 0.011ms returns 0
T4EE0 000:158.146 JLINK_GetDebugInfo(0x107 = JLINKARM_DEBUG_INFO_NVIC_ADDR_INDEX)
T4EE0 000:158.151   Value=0xE000E000
T4EE0 000:158.158 - 0.011ms returns 0
T4EE0 000:158.164 JLINK_GetDebugInfo(0x10C = JLINKARM_DEBUG_INFO_DBG_ADDR_INDEX)
T4EE0 000:158.168   Value=0xE000EDF0
T4EE0 000:158.175 - 0.011ms returns 0
T4EE0 000:158.181 JLINK_GetDebugInfo(0x01 = Unknown)
T4EE0 000:158.186   Value=0x00000001
T4EE0 000:158.193 - 0.012ms returns 0
T4EE0 000:158.199 JLINK_ReadMemU32(0xE000ED00, 0x1 Items)
T4EE0 000:158.206   CPU_ReadMem(4 bytes @ 0xE000ED00)
T4EE0 000:159.001   Data:  71 C2 1F 41
T4EE0 000:159.014   Debug reg: CPUID
T4EE0 000:159.022 - 0.822ms returns 1 (0x1)
T4EE0 000:159.030 JLINK_GetDebugInfo(0x10F = JLINKARM_DEBUG_INFO_HAS_CORTEX_M_SECURITY_EXT_INDEX)
T4EE0 000:159.035   Value=0x00000000
T4EE0 000:159.042 - 0.012ms returns 0
T4EE0 000:159.048 JLINK_HasError()
T4EE0 000:159.055 JLINK_SetResetType(JLINKARM_CM3_RESET_TYPE_NORMAL)
T4EE0 000:159.060 - 0.005ms returns JLINKARM_CM3_RESET_TYPE_NORMAL
T4EE0 000:159.066 JLINK_Reset()
T4EE0 000:159.077   JLINK_GetResetTypeDesc
T4EE0 000:159.082   - 0.005ms 
T4EE0 000:159.101   Reset type: NORMAL (https://kb.segger.com/J-Link_Reset_Strategies)
T4EE0 000:159.113   CPU is running
T4EE0 000:159.121   CPU_WriteMem(4 bytes @ 0xE000EDF0)
T4EE0 000:159.854   CPU is running
T4EE0 000:159.864   CPU_WriteMem(4 bytes @ 0xE000EDFC)
T4EE0 000:160.654   Reset: Halt core after reset via DEMCR.VC_CORERESET.
T4EE0 000:162.035   Reset: Reset device via AIRCR.SYSRESETREQ.
T4EE0 000:162.059   CPU is running
T4EE0 000:162.077   CPU_WriteMem(4 bytes @ 0xE000ED0C)
T4EE0 000:217.648   CPU_ReadMem(4 bytes @ 0xE000EDF0)
T4EE0 000:218.383   CPU_ReadMem(4 bytes @ 0xE000EDF0)
T4EE0 000:222.551   CPU_WriteMem(4 bytes @ 0xE000EDFC)
T4EE0 000:229.157   CPU_ReadMem(4 bytes @ 0xE000EDF0)
T4EE0 000:233.441   CPU_WriteMem(4 bytes @ 0xE0002000)
T4EE0 000:234.548   CPU_ReadMem(4 bytes @ 0xE000EDFC)
T4EE0 000:235.358   CPU_ReadMem(4 bytes @ 0xE0001000)
T4EE0 000:236.118 - 77.051ms 
T4EE0 000:236.180 JLINK_HasError()
T4EE0 000:236.196 JLINK_ReadReg(R15 (PC))
T4EE0 000:236.203 - 0.012ms returns 0x080002AC
T4EE0 000:236.209 JLINK_ReadReg(XPSR)
T4EE0 000:236.214 - 0.005ms returns 0x01000000
T4EE0 000:236.220 JLINK_Halt()
T4EE0 000:236.225 - 0.004ms returns 0x00
T4EE0 000:236.231 JLINK_ReadMemU32(0xE000EDF0, 0x1 Items)
T4EE0 000:236.240   CPU_ReadMem(4 bytes @ 0xE000EDF0)
T4EE0 000:236.975   Data:  03 00 03 00
T4EE0 000:236.988   Debug reg: DHCSR
T4EE0 000:236.995 - 0.763ms returns 1 (0x1)
T4EE0 000:237.008 JLINK_WriteU32(0xE000EDF0, 0xA05F0003)
T4EE0 000:237.013   Debug reg: DHCSR
T4EE0 000:237.206   CPU_WriteMem(4 bytes @ 0xE000EDF0)
T4EE0 000:237.998 - 0.989ms returns 0 (0x00000000)
T4EE0 000:238.006 JLINK_WriteU32(0xE000EDFC, 0x01000000)
T4EE0 000:238.011   Debug reg: DEMCR
T4EE0 000:238.021   CPU_WriteMem(4 bytes @ 0xE000EDFC)
T4EE0 000:238.747 - 0.740ms returns 0 (0x00000000)
T4EE0 000:238.783 JLINK_GetHWStatus(...)
T4EE0 000:239.335 - 0.554ms returns 0
T4EE0 000:239.362 JLINK_GetNumBPUnits(Type = 0xFFFFFF00)
T4EE0 000:239.367 - 0.005ms returns 0x08
T4EE0 000:239.373 JLINK_GetNumBPUnits(Type = 0xF0)
T4EE0 000:239.378 - 0.004ms returns 0x2000
T4EE0 000:239.384 JLINK_GetNumWPUnits()
T4EE0 000:239.389 - 0.004ms returns 4
T4EE0 000:239.401 JLINK_GetSpeed()
T4EE0 000:239.406 - 0.004ms returns 4000
T4EE0 000:239.416 JLINK_ReadMemU32(0xE000E004, 0x1 Items)
T4EE0 000:239.423   CPU_ReadMem(4 bytes @ 0xE000E004)
T4EE0 000:240.121   Data:  04 00 00 00
T4EE0 000:240.129 - 0.713ms returns 1 (0x1)
T4EE0 000:240.137 JLINK_ReadMemU32(0xE000E004, 0x1 Items)
T4EE0 000:240.142   CPU_ReadMem(4 bytes @ 0xE000E004)
T4EE0 000:240.883   Data:  04 00 00 00
T4EE0 000:240.901 - 0.763ms returns 1 (0x1)
T4EE0 000:240.930 JLINK_WriteMemEx(0xE0001000, 0x0000001C Bytes, Flags = 0x02000004)
T4EE0 000:240.941   Data:  01 00 00 00 00 00 00 00 00 00 00 00 00 00 00 00 ...
T4EE0 000:240.973   CPU_WriteMem(28 bytes @ 0xE0001000)
T4EE0 000:241.936 - 1.006ms returns 0x1C
T4EE0 000:241.964 JLINK_HasError()
T4EE0 000:241.979 JLINK_ReadReg(R15 (PC))
T4EE0 000:241.992 - 0.012ms returns 0x080002AC
T4EE0 000:242.005 JLINK_ReadReg(XPSR)
T4EE0 000:242.015 - 0.010ms returns 0x01000000
T4EE0 000:244.253 JLINK_ReadMemEx(0xE0001004, 0x4 Bytes, Flags = 0x02000000)
T4EE0 000:244.265   Data:  00 00 00 00
T4EE0 000:244.273   Debug reg: DWT_CYCCNT
T4EE0 000:244.280 - 0.026ms returns 4 (0x4)
T4EE0 000:336.767 JLINK_HasError()
T4EE0 000:336.791 JLINK_SetResetType(JLINKARM_CM3_RESET_TYPE_NORMAL)
T4EE0 000:336.798 - 0.006ms returns JLINKARM_CM3_RESET_TYPE_NORMAL
T4EE0 000:336.804 JLINK_Reset()
T4EE0 000:336.816   JLINK_GetResetTypeDesc
T4EE0 000:336.822   - 0.005ms 
T4EE0 000:336.839   Reset type: NORMAL (https://kb.segger.com/J-Link_Reset_Strategies)
T4EE0 000:336.848   CPU_WriteMem(4 bytes @ 0xE000EDF0)
T4EE0 000:337.649   CPU_WriteMem(4 bytes @ 0xE000EDFC)
T4EE0 000:338.387   Reset: Halt core after reset via DEMCR.VC_CORERESET.
T4EE0 000:339.650   Reset: Reset device via AIRCR.SYSRESETREQ.
T4EE0 000:339.662   CPU_WriteMem(4 bytes @ 0xE000ED0C)
T4EE0 000:394.775   CPU_ReadMem(4 bytes @ 0xE000EDF0)
T4EE0 000:395.523   CPU_ReadMem(4 bytes @ 0xE000EDF0)
T4EE0 000:396.238   CPU_WriteMem(4 bytes @ 0xE000EDFC)
T4EE0 000:403.225   CPU_ReadMem(4 bytes @ 0xE000EDF0)
T4EE0 000:407.672   CPU_WriteMem(4 bytes @ 0xE0002000)
T4EE0 000:408.549   CPU_ReadMem(4 bytes @ 0xE000EDFC)
T4EE0 000:409.348   CPU_ReadMem(4 bytes @ 0xE0001000)
T4EE0 000:410.115 - 73.310ms 
T4EE0 000:410.177 JLINK_HasError()
T4EE0 000:410.184 JLINK_ReadReg(R15 (PC))
T4EE0 000:410.190 - 0.005ms returns 0x080002AC
T4EE0 000:410.196 JLINK_ReadReg(XPSR)
T4EE0 000:410.201 - 0.004ms returns 0x01000000
T4EE0 000:410.333 JLINK_ReadMemEx(0x080002AC, 0x3C Bytes, Flags = 0x02000000)
T4EE0 000:410.345   CPU_ReadMem(128 bytes @ 0x08000280)
T4EE0 000:411.808    -- Updating C cache (128 bytes @ 0x08000280)
T4EE0 000:411.819    -- Read from C cache (60 bytes @ 0x080002AC)
T4EE0 000:411.828   Data:  06 48 80 47 06 48 00 47 FE E7 FE E7 FE E7 FE E7 ...
T4EE0 000:411.887 - 1.553ms returns 60 (0x3C)
T4EE0 000:411.895 JLINK_ReadMemEx(0x080002AC, 0x2 Bytes, Flags = 0x02000000)
T4EE0 000:411.901    -- Read from C cache (2 bytes @ 0x080002AC)
T4EE0 000:411.908   Data:  06 48
T4EE0 000:411.915 - 0.020ms returns 2 (0x2)
T4EE0 000:411.974 JLINK_ReadMemEx(0x080002AE, 0x2 Bytes, Flags = 0x02000000)
T4EE0 000:411.979    -- Read from C cache (2 bytes @ 0x080002AE)
T4EE0 000:411.986   Data:  80 47
T4EE0 000:411.993 - 0.019ms returns 2 (0x2)
T4EE0 000:412.234 JLINK_ReadMemEx(0x080002AE, 0x2 Bytes, Flags = 0x02000000)
T4EE0 000:412.240    -- Read from C cache (2 bytes @ 0x080002AE)
T4EE0 000:412.247   Data:  80 47
T4EE0 000:412.254 - 0.020ms returns 2 (0x2)
T4EE0 000:412.260 JLINK_ReadMemEx(0x080002B0, 0x3C Bytes, Flags = 0x02000000)
T4EE0 000:412.265    -- Read from C cache (60 bytes @ 0x080002B0)
T4EE0 000:412.273   Data:  06 48 00 47 FE E7 FE E7 FE E7 FE E7 FE E7 FE E7 ...
T4EE0 000:412.280 - 0.019ms returns 60 (0x3C)
T4EE0 000:412.286 JLINK_ReadMemEx(0x080002B0, 0x2 Bytes, Flags = 0x02000000)
T4EE0 000:412.291    -- Read from C cache (2 bytes @ 0x080002B0)
T4EE0 000:412.298   Data:  06 48
T4EE0 000:412.305 - 0.019ms returns 2 (0x2)
T4EE0 000:412.318 JLINK_ReadMemEx(0x080002B0, 0x3C Bytes, Flags = 0x02000000)
T4EE0 000:412.323    -- Read from C cache (60 bytes @ 0x080002B0)
T4EE0 000:412.331   Data:  06 48 00 47 FE E7 FE E7 FE E7 FE E7 FE E7 FE E7 ...
T4EE0 000:412.337 - 0.019ms returns 60 (0x3C)
T4EE0 000:412.343 JLINK_ReadMemEx(0x080002B0, 0x2 Bytes, Flags = 0x02000000)
T4EE0 000:412.348    -- Read from C cache (2 bytes @ 0x080002B0)
T4EE0 000:412.355   Data:  06 48
T4EE0 000:412.362 - 0.018ms returns 2 (0x2)
T4EE0 000:412.368 JLINK_ReadMemEx(0x080002B2, 0x2 Bytes, Flags = 0x02000000)
T4EE0 000:412.373    -- Read from C cache (2 bytes @ 0x080002B2)
T4EE0 000:412.380   Data:  00 47
T4EE0 000:412.387 - 0.019ms returns 2 (0x2)
T4EE0 000:412.399 JLINK_ReadMemEx(0x080002B2, 0x2 Bytes, Flags = 0x02000000)
T4EE0 000:412.404    -- Read from C cache (2 bytes @ 0x080002B2)
T4EE0 000:412.411   Data:  00 47
T4EE0 000:412.418 - 0.018ms returns 2 (0x2)
T4EE0 000:412.424 JLINK_ReadMemEx(0x080002B4, 0x3C Bytes, Flags = 0x02000000)
T4EE0 000:412.429    -- Read from C cache (60 bytes @ 0x080002B4)
T4EE0 000:412.436   Data:  FE E7 FE E7 FE E7 FE E7 FE E7 FE E7 FE E7 FE E7 ...
T4EE0 000:412.443 - 0.019ms returns 60 (0x3C)
T4EE0 000:412.449 JLINK_ReadMemEx(0x080002B4, 0x2 Bytes, Flags = 0x02000000)
T4EE0 000:412.454    -- Read from C cache (2 bytes @ 0x080002B4)
T4EE0 000:412.461   Data:  FE E7
T4EE0 000:412.468 - 0.018ms returns 2 (0x2)
T4EE0 000:412.479 JLINK_ReadMemEx(0x080002B4, 0x3C Bytes, Flags = 0x02000000)
T4EE0 000:412.484    -- Read from C cache (60 bytes @ 0x080002B4)
T4EE0 000:412.491   Data:  FE E7 FE E7 FE E7 FE E7 FE E7 FE E7 FE E7 FE E7 ...
T4EE0 000:412.499 - 0.019ms returns 60 (0x3C)
T4EE0 000:412.505 JLINK_ReadMemEx(0x080002B4, 0x2 Bytes, Flags = 0x02000000)
T4EE0 000:412.510    -- Read from C cache (2 bytes @ 0x080002B4)
T4EE0 000:412.516   Data:  FE E7
T4EE0 000:412.524 - 0.019ms returns 2 (0x2)
T4EE0 000:412.530 JLINK_ReadMemEx(0x080002B6, 0x2 Bytes, Flags = 0x02000000)
T4EE0 000:412.535    -- Read from C cache (2 bytes @ 0x080002B6)
T4EE0 000:412.542   Data:  FE E7
T4EE0 000:412.549 - 0.019ms returns 2 (0x2)
T4EE0 000:412.564 JLINK_ReadMemEx(0x080002B6, 0x2 Bytes, Flags = 0x02000000)
T4EE0 000:412.569    -- Read from C cache (2 bytes @ 0x080002B6)
T4EE0 000:412.576   Data:  FE E7
T4EE0 000:412.583 - 0.019ms returns 2 (0x2)
T4EE0 000:412.589 JLINK_ReadMemEx(0x080002B8, 0x3C Bytes, Flags = 0x02000000)
T4EE0 000:412.594    -- Read from C cache (60 bytes @ 0x080002B8)
T4EE0 000:412.602   Data:  FE E7 FE E7 FE E7 FE E7 FE E7 FE E7 FE E7 FE E7 ...
T4EE0 000:412.609 - 0.019ms returns 60 (0x3C)
T4EE0 000:412.614 JLINK_ReadMemEx(0x080002B8, 0x2 Bytes, Flags = 0x02000000)
T4EE0 000:412.619    -- Read from C cache (2 bytes @ 0x080002B8)
T4EE0 000:412.626   Data:  FE E7
T4EE0 000:412.633 - 0.019ms returns 2 (0x2)
T4EE0 000:412.650 JLINK_ReadMemEx(0x080002B8, 0x3C Bytes, Flags = 0x02000000)
T4EE0 000:412.655    -- Read from C cache (60 bytes @ 0x080002B8)
T4EE0 000:412.663   Data:  FE E7 FE E7 FE E7 FE E7 FE E7 FE E7 FE E7 FE E7 ...
T4EE0 000:412.670 - 0.020ms returns 60 (0x3C)
T4EE0 000:412.676 JLINK_ReadMemEx(0x080002B8, 0x2 Bytes, Flags = 0x02000000)
T4EE0 000:412.681    -- Read from C cache (2 bytes @ 0x080002B8)
T4EE0 000:412.688   Data:  FE E7
T4EE0 000:412.695 - 0.019ms returns 2 (0x2)
T4EE0 000:412.701 JLINK_ReadMemEx(0x080002BA, 0x2 Bytes, Flags = 0x02000000)
T4EE0 000:412.706    -- Read from C cache (2 bytes @ 0x080002BA)
T4EE0 000:412.713   Data:  FE E7
T4EE0 000:412.720 - 0.018ms returns 2 (0x2)
T4EE0 000:412.735 JLINK_ReadMemEx(0x080002BA, 0x2 Bytes, Flags = 0x02000000)
T4EE0 000:412.740    -- Read from C cache (2 bytes @ 0x080002BA)
T4EE0 000:412.747   Data:  FE E7
T4EE0 000:412.754 - 0.019ms returns 2 (0x2)
T4EE0 000:412.760 JLINK_ReadMemEx(0x080002BC, 0x3C Bytes, Flags = 0x02000000)
T4EE0 000:412.769    -- Read from C cache (60 bytes @ 0x080002BC)
T4EE0 000:412.776   Data:  FE E7 FE E7 FE E7 FE E7 FE E7 FE E7 31 17 00 08 ...
T4EE0 000:412.783 - 0.023ms returns 60 (0x3C)
T4EE0 000:412.789 JLINK_ReadMemEx(0x080002BC, 0x2 Bytes, Flags = 0x02000000)
T4EE0 000:412.794    -- Read from C cache (2 bytes @ 0x080002BC)
T4EE0 000:412.801   Data:  FE E7
T4EE0 000:412.808 - 0.018ms returns 2 (0x2)
T4EE0 002:059.286 JLINK_HasError()
T4EE0 002:059.340 JLINK_ReadReg(R0)
T4EE0 002:060.158 - 0.834ms returns 0x00000000
T4EE0 002:060.172 JLINK_ReadReg(R1)
T4EE0 002:060.178 - 0.005ms returns 0x00000000
T4EE0 002:060.184 JLINK_ReadReg(R2)
T4EE0 002:060.189 - 0.005ms returns 0x00000000
T4EE0 002:060.195 JLINK_ReadReg(R3)
T4EE0 002:060.207 - 0.011ms returns 0x00000000
T4EE0 002:060.212 JLINK_ReadReg(R4)
T4EE0 002:060.218 - 0.004ms returns 0x00000000
T4EE0 002:060.223 JLINK_ReadReg(R5)
T4EE0 002:060.228 - 0.004ms returns 0x00000000
T4EE0 002:060.234 JLINK_ReadReg(R6)
T4EE0 002:060.239 - 0.004ms returns 0x00000000
T4EE0 002:060.252 JLINK_ReadReg(R7)
T4EE0 002:060.256 - 0.004ms returns 0x00000000
T4EE0 002:060.262 JLINK_ReadReg(R8)
T4EE0 002:060.267 - 0.004ms returns 0x00000000
T4EE0 002:060.273 JLINK_ReadReg(R9)
T4EE0 002:060.278 - 0.004ms returns 0x00000000
T4EE0 002:060.286 JLINK_ReadReg(R10)
T4EE0 002:060.292 - 0.005ms returns 0x00000000
T4EE0 002:060.298 JLINK_ReadReg(R11)
T4EE0 002:060.303 - 0.004ms returns 0x00000000
T4EE0 002:060.315 JLINK_ReadReg(R12)
T4EE0 002:060.320 - 0.005ms returns 0x00000000
T4EE0 002:060.326 JLINK_ReadReg(R13 (SP))
T4EE0 002:060.331 - 0.005ms returns 0x20000468
T4EE0 002:060.337 JLINK_ReadReg(R14)
T4EE0 002:060.342 - 0.004ms returns 0xFFFFFFFF
T4EE0 002:060.356 JLINK_ReadReg(R15 (PC))
T4EE0 002:060.361 - 0.005ms returns 0x080002AC
T4EE0 002:060.367 JLINK_ReadReg(XPSR)
T4EE0 002:060.372 - 0.004ms returns 0x01000000
T4EE0 002:060.378 JLINK_ReadReg(MSP)
T4EE0 002:060.389 - 0.010ms returns 0x20000468
T4EE0 002:060.395 JLINK_ReadReg(PSP)
T4EE0 002:060.400 - 0.004ms returns 0x00000000
T4EE0 002:060.406 JLINK_ReadReg(CFBP)
T4EE0 002:060.411 - 0.004ms returns 0x00000000
T4EE0 002:060.417 JLINK_ReadReg(FPSCR)
T4EE0 002:065.234 - 4.816ms returns 0x00000000
T4EE0 002:065.251 JLINK_ReadReg(FPS0)
T4EE0 002:065.257 - 0.006ms returns 0x00000000
T4EE0 002:065.263 JLINK_ReadReg(FPS1)
T4EE0 002:065.291 - 0.027ms returns 0x00000000
T4EE0 002:065.298 JLINK_ReadReg(FPS2)
T4EE0 002:065.302 - 0.004ms returns 0x00000000
T4EE0 002:065.308 JLINK_ReadReg(FPS3)
T4EE0 002:065.314 - 0.005ms returns 0x00000000
T4EE0 002:065.319 JLINK_ReadReg(FPS4)
T4EE0 002:065.324 - 0.005ms returns 0x00000000
T4EE0 002:065.330 JLINK_ReadReg(FPS5)
T4EE0 002:065.335 - 0.004ms returns 0x00000000
T4EE0 002:065.341 JLINK_ReadReg(FPS6)
T4EE0 002:065.346 - 0.004ms returns 0x00000000
T4EE0 002:065.358 JLINK_ReadReg(FPS7)
T4EE0 002:065.363 - 0.004ms returns 0x00000000
T4EE0 002:065.369 JLINK_ReadReg(FPS8)
T4EE0 002:065.378 - 0.009ms returns 0x00000000
T4EE0 002:065.384 JLINK_ReadReg(FPS9)
T4EE0 002:065.393 - 0.008ms returns 0x00000000
T4EE0 002:065.400 JLINK_ReadReg(FPS10)
T4EE0 002:065.405 - 0.004ms returns 0x00000000
T4EE0 002:065.411 JLINK_ReadReg(FPS11)
T4EE0 002:065.416 - 0.004ms returns 0x00000000
T4EE0 002:065.422 JLINK_ReadReg(FPS12)
T4EE0 002:065.426 - 0.004ms returns 0x00000000
T4EE0 002:065.432 JLINK_ReadReg(FPS13)
T4EE0 002:065.437 - 0.005ms returns 0x00000000
T4EE0 002:065.443 JLINK_ReadReg(FPS14)
T4EE0 002:065.448 - 0.004ms returns 0x00000000
T4EE0 002:065.454 JLINK_ReadReg(FPS15)
T4EE0 002:065.459 - 0.004ms returns 0xFFFFFFFF
T4EE0 002:065.465 JLINK_ReadReg(FPS16)
T4EE0 002:065.470 - 0.004ms returns 0x00000000
T4EE0 002:065.475 JLINK_ReadReg(FPS17)
T4EE0 002:065.480 - 0.004ms returns 0x00000000
T4EE0 002:065.486 JLINK_ReadReg(FPS18)
T4EE0 002:065.491 - 0.004ms returns 0x00000000
T4EE0 002:065.497 JLINK_ReadReg(FPS19)
T4EE0 002:065.502 - 0.004ms returns 0x00000000
T4EE0 002:065.508 JLINK_ReadReg(FPS20)
T4EE0 002:065.512 - 0.004ms returns 0x00000000
T4EE0 002:065.518 JLINK_ReadReg(FPS21)
T4EE0 002:065.523 - 0.005ms returns 0x00000000
T4EE0 002:065.529 JLINK_ReadReg(FPS22)
T4EE0 002:065.534 - 0.004ms returns 0x00000000
T4EE0 002:065.540 JLINK_ReadReg(FPS23)
T4EE0 002:065.545 - 0.004ms returns 0x00000000
T4EE0 002:065.550 JLINK_ReadReg(FPS24)
T4EE0 002:065.555 - 0.004ms returns 0x00000000
T4EE0 002:065.561 JLINK_ReadReg(FPS25)
T4EE0 002:065.566 - 0.004ms returns 0x00000000
T4EE0 002:065.572 JLINK_ReadReg(FPS26)
T4EE0 002:065.577 - 0.004ms returns 0x00000000
T4EE0 002:065.583 JLINK_ReadReg(FPS27)
T4EE0 002:065.588 - 0.004ms returns 0x00000000
T4EE0 002:065.593 JLINK_ReadReg(FPS28)
T4EE0 002:065.598 - 0.004ms returns 0x00000000
T4EE0 002:065.604 JLINK_ReadReg(FPS29)
T4EE0 002:065.609 - 0.004ms returns 0x00000000
T4EE0 002:065.615 JLINK_ReadReg(FPS30)
T4EE0 002:065.620 - 0.004ms returns 0x00000000
T4EE0 002:065.626 JLINK_ReadReg(FPS31)
T4EE0 002:065.631 - 0.005ms returns 0xFFFFFFFF
T9060 002:137.190 JLINK_ReadMemEx(0x080002AC, 0x2 Bytes, Flags = 0x02000000)
T9060 002:137.219    -- Read from C cache (2 bytes @ 0x080002AC)
T9060 002:137.228   Data:  06 48
T9060 002:137.236 - 0.046ms returns 2 (0x2)
T9060 002:137.244 JLINK_HasError()
T9060 002:137.263 JLINK_SetBPEx(Addr = 0x9000E9A4, Type = 0xFFFFFFF2)
T9060 002:137.271 - 0.007ms returns 0x00000001
T9060 002:137.277 JLINK_HasError()
T9060 002:137.283 JLINK_SetBPEx(Addr = 0x9000E838, Type = 0xFFFFFFF2)
T9060 002:137.288 - 0.005ms returns 0x00000002
T9060 002:137.294 JLINK_HasError()
T9060 002:137.300 JLINK_HasError()
T9060 002:137.307 JLINK_Go()
T9060 002:137.320   CPU_WriteMem(4 bytes @ 0xE0002000)
T9060 002:138.180   CPU_WriteMem(4 bytes @ 0xE0002000)
T9060 002:138.974   CPU_ReadMem(4 bytes @ 0xE0001000)
T9060 002:139.978   CPU_WriteMem(4 bytes @ 0xE0002008)
T9060 002:139.992   CPU_WriteMem(4 bytes @ 0xE000200C)
T9060 002:140.000   CPU_WriteMem(4 bytes @ 0xE0002010)
T9060 002:140.007   CPU_WriteMem(4 bytes @ 0xE0002014)
T9060 002:140.015   CPU_WriteMem(4 bytes @ 0xE0002018)
T9060 002:140.023   CPU_WriteMem(4 bytes @ 0xE000201C)
T9060 002:140.030   CPU_WriteMem(4 bytes @ 0xE0002020)
T9060 002:140.037   CPU_WriteMem(4 bytes @ 0xE0002024)
T9060 002:142.123   CPU_WriteMem(4 bytes @ 0xE0001004)
T9060 002:144.976   Memory map 'after startup completion point' is active
T9060 002:144.991 - 7.683ms 
T9060 002:245.030 JLINK_HasError()
T9060 002:245.054 JLINK_IsHalted()
T9060 002:248.657 - 3.602ms returns TRUE
T9060 002:248.686 JLINK_HasError()
T9060 002:248.701 JLINK_Halt()
T9060 002:248.713 - 0.011ms returns 0x00
T9060 002:248.727 JLINK_IsHalted()
T9060 002:248.739 - 0.011ms returns TRUE
T9060 002:248.753 JLINK_IsHalted()
T9060 002:248.764 - 0.011ms returns TRUE
T9060 002:248.779 JLINK_IsHalted()
T9060 002:248.791 - 0.012ms returns TRUE
T9060 002:248.806 JLINK_HasError()
T9060 002:248.821 JLINK_ReadReg(R15 (PC))
T9060 002:248.834 - 0.013ms returns 0x90002648
T9060 002:248.848 JLINK_ReadReg(XPSR)
T9060 002:248.859 - 0.011ms returns 0x01000000
T9060 002:248.876 JLINK_HasError()
T9060 002:248.918 JLINK_ClrBPEx(BPHandle = 0x00000001)
T9060 002:248.930 - 0.012ms returns 0x00
T9060 002:248.944 JLINK_HasError()
T9060 002:248.958 JLINK_ClrBPEx(BPHandle = 0x00000002)
T9060 002:248.970 - 0.011ms returns 0x00
T9060 002:248.984 JLINK_HasError()
T9060 002:248.997 JLINK_HasError()
T9060 002:249.012 JLINK_ReadMemU32(0xE000ED30, 0x1 Items)
T9060 002:249.031   CPU_ReadMem(4 bytes @ 0xE000ED30)
T9060 002:249.817   Data:  02 00 00 00
T9060 002:249.831 - 0.819ms returns 1 (0x1)
T9060 002:249.849 JLINK_ReadMemU32(0xE0001028, 0x1 Items)
T9060 002:249.857   CPU_ReadMem(4 bytes @ 0xE0001028)
T9060 002:250.639   Data:  00 00 00 00
T9060 002:250.653   Debug reg: DWT_FUNC[0]
T9060 002:250.661 - 0.811ms returns 1 (0x1)
T9060 002:250.674 JLINK_ReadMemU32(0xE0001038, 0x1 Items)
T9060 002:250.682   CPU_ReadMem(4 bytes @ 0xE0001038)
T9060 002:251.397   Data:  00 02 00 00
T9060 002:251.411   Debug reg: DWT_FUNC[1]
T9060 002:251.419 - 0.744ms returns 1 (0x1)
T9060 002:251.433 JLINK_ReadMemU32(0xE0001048, 0x1 Items)
T9060 002:251.441   CPU_ReadMem(4 bytes @ 0xE0001048)
T9060 002:252.157   Data:  00 00 00 00
T9060 002:252.172   Debug reg: DWT_FUNC[2]
T9060 002:252.180 - 0.746ms returns 1 (0x1)
T9060 002:252.194 JLINK_ReadMemU32(0xE0001058, 0x1 Items)
T9060 002:252.202   CPU_ReadMem(4 bytes @ 0xE0001058)
T9060 002:253.033   Data:  00 00 00 00
T9060 002:253.047   Debug reg: DWT_FUNC[3]
T9060 002:253.055 - 0.860ms returns 1 (0x1)
T9060 002:253.120 JLINK_HasError()
T9060 002:253.128 JLINK_ReadReg(R0)
T9060 002:253.134 - 0.005ms returns 0x00000001
T9060 002:253.140 JLINK_ReadReg(R1)
T9060 002:253.145 - 0.005ms returns 0x24019FE0
T9060 002:253.151 JLINK_ReadReg(R2)
T9060 002:253.156 - 0.004ms returns 0x00000000
T9060 002:253.162 JLINK_ReadReg(R3)
T9060 002:253.167 - 0.004ms returns 0x90018B31
T9060 002:253.173 JLINK_ReadReg(R4)
T9060 002:253.178 - 0.005ms returns 0x00000000
T9060 002:253.184 JLINK_ReadReg(R5)
T9060 002:253.189 - 0.004ms returns 0x00000001
T9060 002:253.195 JLINK_ReadReg(R6)
T9060 002:253.200 - 0.005ms returns 0x24017460
T9060 002:253.206 JLINK_ReadReg(R7)
T9060 002:253.211 - 0.004ms returns 0x90018B30
T9060 002:253.217 JLINK_ReadReg(R8)
T9060 002:253.222 - 0.005ms returns 0x00000000
T9060 002:253.228 JLINK_ReadReg(R9)
T9060 002:253.233 - 0.004ms returns 0x00000000
T9060 002:253.239 JLINK_ReadReg(R10)
T9060 002:253.244 - 0.005ms returns 0x900196E8
T9060 002:253.250 JLINK_ReadReg(R11)
T9060 002:253.255 - 0.004ms returns 0x00000000
T9060 002:253.261 JLINK_ReadReg(R12)
T9060 002:253.266 - 0.004ms returns 0x00000000
T9060 002:253.273 JLINK_ReadReg(R13 (SP))
T9060 002:253.278 - 0.005ms returns 0x24019FE0
T9060 002:253.284 JLINK_ReadReg(R14)
T9060 002:253.289 - 0.005ms returns 0x90002643
T9060 002:253.299 JLINK_ReadReg(R15 (PC))
T9060 002:253.304 - 0.005ms returns 0x90002648
T9060 002:253.310 JLINK_ReadReg(XPSR)
T9060 002:253.316 - 0.005ms returns 0x01000000
T9060 002:253.321 JLINK_ReadReg(MSP)
T9060 002:253.326 - 0.004ms returns 0x24019FE0
T9060 002:253.332 JLINK_ReadReg(PSP)
T9060 002:253.337 - 0.005ms returns 0x00000000
T9060 002:253.343 JLINK_ReadReg(CFBP)
T9060 002:253.349 - 0.005ms returns 0x04000000
T9060 002:253.356 JLINK_ReadReg(FPSCR)
T9060 002:258.392 - 5.036ms returns 0x03000000
T9060 002:258.406 JLINK_ReadReg(FPS0)
T9060 002:258.413 - 0.006ms returns 0x1C9C3800
T9060 002:258.419 JLINK_ReadReg(FPS1)
T9060 002:258.424 - 0.005ms returns 0x00000000
T9060 002:258.430 JLINK_ReadReg(FPS2)
T9060 002:258.436 - 0.005ms returns 0x40000000
T9060 002:258.442 JLINK_ReadReg(FPS3)
T9060 002:258.447 - 0.005ms returns 0x00000000
T9060 002:258.453 JLINK_ReadReg(FPS4)
T9060 002:258.459 - 0.005ms returns 0x40A00000
T9060 002:258.465 JLINK_ReadReg(FPS5)
T9060 002:258.470 - 0.005ms returns 0x00000000
T9060 002:258.476 JLINK_ReadReg(FPS6)
T9060 002:258.481 - 0.005ms returns 0x39000000
T9060 002:258.487 JLINK_ReadReg(FPS7)
T9060 002:258.492 - 0.005ms returns 0x00000000
T9060 002:258.498 JLINK_ReadReg(FPS8)
T9060 002:258.504 - 0.004ms returns 0x00000000
T9060 002:258.556 JLINK_ReadReg(FPS9)
T9060 002:258.561 - 0.005ms returns 0x00000000
T9060 002:258.567 JLINK_ReadReg(FPS10)
T9060 002:258.572 - 0.005ms returns 0x00000000
T9060 002:258.578 JLINK_ReadReg(FPS11)
T9060 002:258.583 - 0.004ms returns 0x00000000
T9060 002:258.589 JLINK_ReadReg(FPS12)
T9060 002:258.594 - 0.005ms returns 0x00000000
T9060 002:258.601 JLINK_ReadReg(FPS13)
T9060 002:258.606 - 0.005ms returns 0x00000000
T9060 002:258.612 JLINK_ReadReg(FPS14)
T9060 002:258.617 - 0.005ms returns 0x00000000
T9060 002:258.623 JLINK_ReadReg(FPS15)
T9060 002:258.628 - 0.004ms returns 0xFFFFFFFF
T9060 002:258.634 JLINK_ReadReg(FPS16)
T9060 002:258.639 - 0.004ms returns 0x00000000
T9060 002:258.645 JLINK_ReadReg(FPS17)
T9060 002:258.650 - 0.005ms returns 0x00000000
T9060 002:258.656 JLINK_ReadReg(FPS18)
T9060 002:258.661 - 0.005ms returns 0x00000000
T9060 002:258.667 JLINK_ReadReg(FPS19)
T9060 002:258.672 - 0.005ms returns 0x00000000
T9060 002:258.678 JLINK_ReadReg(FPS20)
T9060 002:258.683 - 0.005ms returns 0x00000000
T9060 002:258.689 JLINK_ReadReg(FPS21)
T9060 002:258.694 - 0.004ms returns 0x00000000
T9060 002:258.700 JLINK_ReadReg(FPS22)
T9060 002:258.705 - 0.004ms returns 0x00000000
T9060 002:258.711 JLINK_ReadReg(FPS23)
T9060 002:258.716 - 0.004ms returns 0x00000000
T9060 002:258.722 JLINK_ReadReg(FPS24)
T9060 002:258.727 - 0.005ms returns 0x00000000
T9060 002:258.733 JLINK_ReadReg(FPS25)
T9060 002:258.738 - 0.005ms returns 0x00000000
T9060 002:258.744 JLINK_ReadReg(FPS26)
T9060 002:258.749 - 0.004ms returns 0x00000000
T9060 002:258.755 JLINK_ReadReg(FPS27)
T9060 002:258.760 - 0.005ms returns 0x00000000
T9060 002:258.766 JLINK_ReadReg(FPS28)
T9060 002:258.771 - 0.005ms returns 0x00000000
T9060 002:258.778 JLINK_ReadReg(FPS29)
T9060 002:258.783 - 0.005ms returns 0x00000000
T9060 002:258.789 JLINK_ReadReg(FPS30)
T9060 002:258.794 - 0.005ms returns 0x00000000
T9060 002:258.800 JLINK_ReadReg(FPS31)
T9060 002:258.805 - 0.004ms returns 0xFFFFFFFF
T9060 002:258.814 JLINK_ReadMemEx(0x2401766C, 0x4 Bytes, Flags = 0x02000000)
T9060 002:258.825   CPU_ReadMem(64 bytes @ 0x24017640)
T9060 002:260.046    -- Updating C cache (64 bytes @ 0x24017640)
T9060 002:260.077    -- Read from C cache (4 bytes @ 0x2401766C)
T9060 002:260.094   Data:  00 00 00 00
T9060 002:260.112 - 1.297ms returns 4 (0x4)
T4EE0 002:260.588 JLINK_ReadMemEx(0x24019FEC, 0x4 Bytes, Flags = 0x02000000)
T4EE0 002:260.604   CPU_ReadMem(64 bytes @ 0x24019FC0)
T4EE0 002:261.752    -- Updating C cache (64 bytes @ 0x24019FC0)
T4EE0 002:261.766    -- Read from C cache (4 bytes @ 0x24019FEC)
T4EE0 002:261.774   Data:  49 25 00 90
T4EE0 002:261.782 - 1.194ms returns 4 (0x4)
T4EE0 002:261.793 JLINK_ReadMemEx(0x24019FEC, 0x4 Bytes, Flags = 0x02000000)
T4EE0 002:261.800    -- Read from C cache (4 bytes @ 0x24019FEC)
T4EE0 002:261.808   Data:  49 25 00 90
T4EE0 002:261.815 - 0.022ms returns 4 (0x4)
T4EE0 002:261.823 JLINK_ReadMemEx(0x2401A004, 0x4 Bytes, Flags = 0x02000000)
T4EE0 002:261.830   CPU_ReadMem(64 bytes @ 0x2401A000)
T4EE0 002:262.984    -- Updating C cache (64 bytes @ 0x2401A000)
T4EE0 002:262.999    -- Read from C cache (4 bytes @ 0x2401A004)
T4EE0 002:263.013   Data:  CD 1B 00 90
T4EE0 002:263.021 - 1.197ms returns 4 (0x4)
T4EE0 002:263.032 JLINK_ReadMemEx(0x24019FF0, 0x4 Bytes, Flags = 0x02000000)
T4EE0 002:263.038    -- Read from C cache (4 bytes @ 0x24019FF0)
T4EE0 002:263.046   Data:  7C 75 01 24
T4EE0 002:263.054 - 0.022ms returns 4 (0x4)
T4EE0 002:263.060 JLINK_ReadMemEx(0x24019FF4, 0x4 Bytes, Flags = 0x02000000)
T4EE0 002:263.066    -- Read from C cache (4 bytes @ 0x24019FF4)
T4EE0 002:263.073   Data:  5C 75 01 24
T4EE0 002:263.081 - 0.021ms returns 4 (0x4)
T4EE0 002:263.088 JLINK_ReadMemEx(0x24019FF8, 0x4 Bytes, Flags = 0x02000000)
T4EE0 002:263.093    -- Read from C cache (4 bytes @ 0x24019FF8)
T4EE0 002:263.101   Data:  00 00 00 00
T4EE0 002:263.108 - 0.020ms returns 4 (0x4)
T4EE0 002:263.115 JLINK_ReadMemEx(0x24019FFC, 0x4 Bytes, Flags = 0x02000000)
T4EE0 002:263.124    -- Read from C cache (4 bytes @ 0x24019FFC)
T4EE0 002:263.132   Data:  00 00 00 00
T4EE0 002:263.140 - 0.025ms returns 4 (0x4)
T4EE0 002:263.146 JLINK_ReadMemEx(0x2401A000, 0x4 Bytes, Flags = 0x02000000)
T4EE0 002:263.152    -- Read from C cache (4 bytes @ 0x2401A000)
T4EE0 002:263.159   Data:  00 00 00 00
T4EE0 002:263.167 - 0.020ms returns 4 (0x4)
T4EE0 002:263.173 JLINK_ReadMemEx(0x2401A004, 0x4 Bytes, Flags = 0x02000000)
T4EE0 002:263.178    -- Read from C cache (4 bytes @ 0x2401A004)
T4EE0 002:263.186   Data:  CD 1B 00 90
T4EE0 002:263.194 - 0.020ms returns 4 (0x4)
T4EE0 002:263.203 JLINK_ReadMemEx(0x2401A00C, 0x4 Bytes, Flags = 0x02000000)
T4EE0 002:263.208    -- Read from C cache (4 bytes @ 0x2401A00C)
T4EE0 002:263.217   Data:  17 04 00 90
T4EE0 002:263.225 - 0.022ms returns 4 (0x4)
T4EE0 002:263.236 JLINK_ReadMemEx(0x2401A008, 0x4 Bytes, Flags = 0x02000000)
T4EE0 002:263.241    -- Read from C cache (4 bytes @ 0x2401A008)
T4EE0 002:263.249   Data:  7C 75 01 24
T4EE0 002:263.258 - 0.022ms returns 4 (0x4)
T4EE0 002:263.264 JLINK_ReadMemEx(0x2401A00C, 0x4 Bytes, Flags = 0x02000000)
T4EE0 002:263.270    -- Read from C cache (4 bytes @ 0x2401A00C)
T4EE0 002:263.277   Data:  17 04 00 90
T4EE0 002:263.285 - 0.020ms returns 4 (0x4)
T4EE0 002:268.350 JLINK_HasError()
T4EE0 002:268.366 JLINK_ReadMemU32(0xE0001004, 0x1 Items)
T4EE0 002:268.376   CPU_ReadMem(4 bytes @ 0xE0001004)
T4EE0 002:269.139   Data:  B2 E3 06 00
T4EE0 002:269.152   Debug reg: DWT_CYCCNT
T4EE0 002:269.160 - 0.794ms returns 1 (0x1)
T4EE0 002:271.691 JLINK_ReadMemEx(0x90002648, 0x3C Bytes, Flags = 0x02000000)
T4EE0 002:271.707   CPU_ReadMem(128 bytes @ 0x90002640)
T4EE0 002:273.202    -- Updating C cache (128 bytes @ 0x90002640)
T4EE0 002:273.217    -- Read from C cache (60 bytes @ 0x90002648)
T4EE0 002:273.226   Data:  AB BE 0E BD 08 B5 69 46 00 90 02 20 AB BE 08 BD ...
T4EE0 002:273.234 - 1.543ms returns 60 (0x3C)
T4EE0 002:273.242 JLINK_ReadMemEx(0x90002648, 0x2 Bytes, Flags = 0x02000000)
T4EE0 002:273.249    -- Read from C cache (2 bytes @ 0x90002648)
T4EE0 002:273.256   Data:  AB BE
T4EE0 002:273.264 - 0.021ms returns 2 (0x2)
T4EE0 002:273.334 JLINK_ReadMemEx(0x9000264A, 0x2 Bytes, Flags = 0x02000000)
T4EE0 002:273.340    -- Read from C cache (2 bytes @ 0x9000264A)
T4EE0 002:273.347   Data:  0E BD
T4EE0 002:273.355 - 0.021ms returns 2 (0x2)
T4EE0 002:273.382 JLINK_ReadMemEx(0x9000264A, 0x2 Bytes, Flags = 0x02000000)
T4EE0 002:273.388    -- Read from C cache (2 bytes @ 0x9000264A)
T4EE0 002:273.395   Data:  0E BD
T4EE0 002:273.402 - 0.020ms returns 2 (0x2)
T4EE0 002:273.408 JLINK_ReadMemEx(0x9000264C, 0x3C Bytes, Flags = 0x02000000)
T4EE0 002:273.414    -- Read from C cache (60 bytes @ 0x9000264C)
T4EE0 002:273.422   Data:  08 B5 69 46 00 90 02 20 AB BE 08 BD 1F B5 8D E8 ...
T4EE0 002:273.429 - 0.020ms returns 60 (0x3C)
T4EE0 002:273.435 JLINK_ReadMemEx(0x9000264C, 0x2 Bytes, Flags = 0x02000000)
T4EE0 002:273.441    -- Read from C cache (2 bytes @ 0x9000264C)
T4EE0 002:273.448   Data:  08 B5
T4EE0 002:273.455 - 0.019ms returns 2 (0x2)
T4EE0 002:273.465 JLINK_ReadMemEx(0x9000264C, 0x3C Bytes, Flags = 0x02000000)
T4EE0 002:273.471    -- Read from C cache (60 bytes @ 0x9000264C)
T4EE0 002:273.478   Data:  08 B5 69 46 00 90 02 20 AB BE 08 BD 1F B5 8D E8 ...
T4EE0 002:273.486 - 0.020ms returns 60 (0x3C)
T4EE0 002:273.492 JLINK_ReadMemEx(0x9000264C, 0x2 Bytes, Flags = 0x02000000)
T4EE0 002:273.497    -- Read from C cache (2 bytes @ 0x9000264C)
T4EE0 002:273.504   Data:  08 B5
T4EE0 002:273.512 - 0.020ms returns 2 (0x2)
T4EE0 002:273.518 JLINK_ReadMemEx(0x9000264E, 0x2 Bytes, Flags = 0x02000000)
T4EE0 002:273.524    -- Read from C cache (2 bytes @ 0x9000264E)
T4EE0 002:273.531   Data:  69 46
T4EE0 002:273.539 - 0.020ms returns 2 (0x2)
T4EE0 002:273.550 JLINK_ReadMemEx(0x9000264E, 0x2 Bytes, Flags = 0x02000000)
T4EE0 002:273.556    -- Read from C cache (2 bytes @ 0x9000264E)
T4EE0 002:273.563   Data:  69 46
T4EE0 002:273.570 - 0.020ms returns 2 (0x2)
T4EE0 002:273.576 JLINK_ReadMemEx(0x90002650, 0x3C Bytes, Flags = 0x02000000)
T4EE0 002:273.586    -- Read from C cache (60 bytes @ 0x90002650)
T4EE0 002:273.594   Data:  00 90 02 20 AB BE 08 BD 1F B5 8D E8 07 00 69 46 ...
T4EE0 002:273.602 - 0.025ms returns 60 (0x3C)
T4EE0 002:273.608 JLINK_ReadMemEx(0x90002650, 0x2 Bytes, Flags = 0x02000000)
T4EE0 002:273.613    -- Read from C cache (2 bytes @ 0x90002650)
T4EE0 002:273.620   Data:  00 90
T4EE0 002:273.628 - 0.020ms returns 2 (0x2)
T4EE0 002:273.639 JLINK_ReadMemEx(0x90002650, 0x3C Bytes, Flags = 0x02000000)
T4EE0 002:273.645    -- Read from C cache (60 bytes @ 0x90002650)
T4EE0 002:273.652   Data:  00 90 02 20 AB BE 08 BD 1F B5 8D E8 07 00 69 46 ...
T4EE0 002:273.660 - 0.020ms returns 60 (0x3C)
T4EE0 002:273.666 JLINK_ReadMemEx(0x90002650, 0x2 Bytes, Flags = 0x02000000)
T4EE0 002:273.671    -- Read from C cache (2 bytes @ 0x90002650)
T4EE0 002:273.678   Data:  00 90
T4EE0 002:273.686 - 0.020ms returns 2 (0x2)
T4EE0 002:273.692 JLINK_ReadMemEx(0x90002652, 0x2 Bytes, Flags = 0x02000000)
T4EE0 002:273.698    -- Read from C cache (2 bytes @ 0x90002652)
T4EE0 002:273.705   Data:  02 20
T4EE0 002:273.712 - 0.020ms returns 2 (0x2)
T4EE0 002:273.724 JLINK_ReadMemEx(0x90002652, 0x2 Bytes, Flags = 0x02000000)
T4EE0 002:273.729    -- Read from C cache (2 bytes @ 0x90002652)
T4EE0 002:273.736   Data:  02 20
T4EE0 002:273.744 - 0.020ms returns 2 (0x2)
T4EE0 002:273.750 JLINK_ReadMemEx(0x90002654, 0x3C Bytes, Flags = 0x02000000)
T4EE0 002:273.758    -- Read from C cache (60 bytes @ 0x90002654)
T4EE0 002:273.774   Data:  AB BE 08 BD 1F B5 8D E8 07 00 69 46 05 20 AB BE ...
T4EE0 002:273.783 - 0.033ms returns 60 (0x3C)
T4EE0 002:273.792 JLINK_ReadMemEx(0x90002654, 0x2 Bytes, Flags = 0x02000000)
T4EE0 002:273.799    -- Read from C cache (2 bytes @ 0x90002654)
T4EE0 002:273.807   Data:  AB BE
T4EE0 002:273.816 - 0.024ms returns 2 (0x2)
T4EE0 002:273.832 JLINK_ReadMemEx(0x90002654, 0x3C Bytes, Flags = 0x02000000)
T4EE0 002:273.839    -- Read from C cache (60 bytes @ 0x90002654)
T4EE0 002:273.848   Data:  AB BE 08 BD 1F B5 8D E8 07 00 69 46 05 20 AB BE ...
T4EE0 002:273.857 - 0.024ms returns 60 (0x3C)
T4EE0 002:273.864 JLINK_ReadMemEx(0x90002654, 0x2 Bytes, Flags = 0x02000000)
T4EE0 002:273.870    -- Read from C cache (2 bytes @ 0x90002654)
T4EE0 002:273.879   Data:  AB BE
T4EE0 002:273.887 - 0.023ms returns 2 (0x2)
T4EE0 002:273.895 JLINK_ReadMemEx(0x90002656, 0x2 Bytes, Flags = 0x02000000)
T4EE0 002:273.901    -- Read from C cache (2 bytes @ 0x90002656)
T4EE0 002:273.911   Data:  08 BD
T4EE0 002:273.920 - 0.025ms returns 2 (0x2)
T9060 005:044.607 JLINK_ReadMemEx(0x90002648, 0x2 Bytes, Flags = 0x02000000)
T9060 005:044.642    -- Read from C cache (2 bytes @ 0x90002648)
T9060 005:044.651   Data:  AB BE
T9060 005:044.659 - 0.052ms returns 2 (0x2)
T9060 005:044.677 JLINK_HasError()
T9060 005:044.687 JLINK_WriteReg(R15 (PC), 0x9000264A)
T9060 005:044.693 - 0.007ms returns 0
T9060 005:044.704 JLINK_HasError()
T9060 005:044.715 JLINK_SetBPEx(Addr = 0x9000E9A4, Type = 0xFFFFFFF2)
T9060 005:044.728 - 0.013ms returns 0x00000003
T9060 005:044.741 JLINK_HasError()
T9060 005:044.754 JLINK_SetBPEx(Addr = 0x9000E838, Type = 0xFFFFFFF2)
T9060 005:044.765 - 0.011ms returns 0x00000004
T9060 005:044.778 JLINK_HasError()
T9060 005:044.791 JLINK_HasError()
T9060 005:044.804 JLINK_Go()
T9060 005:045.591   CPU_WriteMem(4 bytes @ 0xE0002000)
T9060 005:046.451   CPU_WriteMem(4 bytes @ 0xE0002000)
T9060 005:047.202   CPU_ReadMem(4 bytes @ 0xE0001000)
T9060 005:049.727 - 4.921ms 
T9060 005:150.084 JLINK_HasError()
T9060 005:150.111 JLINK_IsHalted()
T9060 005:153.670 - 3.558ms returns TRUE
T9060 005:153.683 JLINK_HasError()
T9060 005:153.689 JLINK_Halt()
T9060 005:153.695 - 0.005ms returns 0x00
T9060 005:153.701 JLINK_IsHalted()
T9060 005:153.706 - 0.004ms returns TRUE
T9060 005:153.712 JLINK_IsHalted()
T9060 005:153.717 - 0.004ms returns TRUE
T9060 005:153.722 JLINK_IsHalted()
T9060 005:153.727 - 0.004ms returns TRUE
T9060 005:153.733 JLINK_HasError()
T9060 005:153.744 JLINK_ReadReg(R15 (PC))
T9060 005:153.752 - 0.008ms returns 0x90002648
T9060 005:153.758 JLINK_ReadReg(XPSR)
T9060 005:153.763 - 0.005ms returns 0x01000000
T9060 005:153.771 JLINK_HasError()
T9060 005:153.777 JLINK_ClrBPEx(BPHandle = 0x00000003)
T9060 005:153.782 - 0.005ms returns 0x00
T9060 005:153.788 JLINK_HasError()
T9060 005:153.795 JLINK_ClrBPEx(BPHandle = 0x00000004)
T9060 005:153.799 - 0.004ms returns 0x00
T9060 005:153.805 JLINK_HasError()
T9060 005:153.811 JLINK_HasError()
T9060 005:153.817 JLINK_ReadMemU32(0xE000ED30, 0x1 Items)
T9060 005:153.827   CPU_ReadMem(4 bytes @ 0xE000ED30)
T9060 005:154.573   Data:  02 00 00 00
T9060 005:154.586 - 0.768ms returns 1 (0x1)
T9060 005:154.593 JLINK_ReadMemU32(0xE0001028, 0x1 Items)
T9060 005:154.601   CPU_ReadMem(4 bytes @ 0xE0001028)
T9060 005:155.286   Data:  00 00 00 00
T9060 005:155.297   Debug reg: DWT_FUNC[0]
T9060 005:155.305 - 0.711ms returns 1 (0x1)
T9060 005:155.312 JLINK_ReadMemU32(0xE0001038, 0x1 Items)
T9060 005:155.325   CPU_ReadMem(4 bytes @ 0xE0001038)
T9060 005:156.055   Data:  00 02 00 00
T9060 005:156.082   Debug reg: DWT_FUNC[1]
T9060 005:156.099 - 0.786ms returns 1 (0x1)
T9060 005:156.115 JLINK_ReadMemU32(0xE0001048, 0x1 Items)
T9060 005:156.131   CPU_ReadMem(4 bytes @ 0xE0001048)
T9060 005:156.941   Data:  00 00 00 00
T9060 005:156.951   Debug reg: DWT_FUNC[2]
T9060 005:156.958 - 0.843ms returns 1 (0x1)
T9060 005:156.965 JLINK_ReadMemU32(0xE0001058, 0x1 Items)
T9060 005:156.972   CPU_ReadMem(4 bytes @ 0xE0001058)
T9060 005:157.673   Data:  00 00 00 00
T9060 005:157.683   Debug reg: DWT_FUNC[3]
T9060 005:157.690 - 0.724ms returns 1 (0x1)
T9060 005:157.742 JLINK_HasError()
T9060 005:157.749 JLINK_ReadReg(R0)
T9060 005:157.755 - 0.005ms returns 0x00000001
T9060 005:157.761 JLINK_ReadReg(R1)
T9060 005:157.765 - 0.004ms returns 0x24019FE0
T9060 005:157.771 JLINK_ReadReg(R2)
T9060 005:157.776 - 0.004ms returns 0x00000000
T9060 005:157.782 JLINK_ReadReg(R3)
T9060 005:157.786 - 0.004ms returns 0x90018B35
T9060 005:157.792 JLINK_ReadReg(R4)
T9060 005:157.797 - 0.004ms returns 0x00000004
T9060 005:157.802 JLINK_ReadReg(R5)
T9060 005:157.807 - 0.004ms returns 0x00000002
T9060 005:157.813 JLINK_ReadReg(R6)
T9060 005:157.817 - 0.004ms returns 0x240174B4
T9060 005:157.823 JLINK_ReadReg(R7)
T9060 005:157.828 - 0.004ms returns 0x90018B34
T9060 005:157.833 JLINK_ReadReg(R8)
T9060 005:157.838 - 0.004ms returns 0x00000000
T9060 005:157.844 JLINK_ReadReg(R9)
T9060 005:157.849 - 0.004ms returns 0x00000000
T9060 005:157.854 JLINK_ReadReg(R10)
T9060 005:157.859 - 0.004ms returns 0x900196E8
T9060 005:157.865 JLINK_ReadReg(R11)
T9060 005:157.869 - 0.004ms returns 0x00000000
T9060 005:157.875 JLINK_ReadReg(R12)
T9060 005:157.880 - 0.004ms returns 0x00000000
T9060 005:157.885 JLINK_ReadReg(R13 (SP))
T9060 005:157.890 - 0.004ms returns 0x24019FE0
T9060 005:157.896 JLINK_ReadReg(R14)
T9060 005:157.901 - 0.004ms returns 0x90002643
T9060 005:157.909 JLINK_ReadReg(R15 (PC))
T9060 005:157.915 - 0.006ms returns 0x90002648
T9060 005:157.921 JLINK_ReadReg(XPSR)
T9060 005:157.926 - 0.004ms returns 0x01000000
T9060 005:157.931 JLINK_ReadReg(MSP)
T9060 005:157.936 - 0.004ms returns 0x24019FE0
T9060 005:157.942 JLINK_ReadReg(PSP)
T9060 005:157.946 - 0.004ms returns 0x00000000
T9060 005:157.952 JLINK_ReadReg(CFBP)
T9060 005:157.957 - 0.004ms returns 0x04000000
T9060 005:157.963 JLINK_ReadReg(FPSCR)
T9060 005:162.797 - 4.833ms returns 0x03000000
T9060 005:162.824 JLINK_ReadReg(FPS0)
T9060 005:162.837 - 0.012ms returns 0x1C9C3800
T9060 005:162.849 JLINK_ReadReg(FPS1)
T9060 005:162.860 - 0.010ms returns 0x00000000
T9060 005:162.873 JLINK_ReadReg(FPS2)
T9060 005:162.883 - 0.010ms returns 0x40000000
T9060 005:162.895 JLINK_ReadReg(FPS3)
T9060 005:162.906 - 0.010ms returns 0x00000000
T9060 005:162.919 JLINK_ReadReg(FPS4)
T9060 005:162.929 - 0.010ms returns 0x40A00000
T9060 005:162.942 JLINK_ReadReg(FPS5)
T9060 005:162.952 - 0.010ms returns 0x00000000
T9060 005:162.965 JLINK_ReadReg(FPS6)
T9060 005:162.979 - 0.014ms returns 0x39000000
T9060 005:162.992 JLINK_ReadReg(FPS7)
T9060 005:163.001 - 0.009ms returns 0x00000000
T9060 005:163.011 JLINK_ReadReg(FPS8)
T9060 005:163.015 - 0.004ms returns 0x00000000
T9060 005:163.021 JLINK_ReadReg(FPS9)
T9060 005:163.025 - 0.004ms returns 0x00000000
T9060 005:163.031 JLINK_ReadReg(FPS10)
T9060 005:163.036 - 0.004ms returns 0x00000000
T9060 005:163.042 JLINK_ReadReg(FPS11)
T9060 005:163.047 - 0.004ms returns 0x00000000
T9060 005:163.053 JLINK_ReadReg(FPS12)
T9060 005:163.057 - 0.004ms returns 0x00000000
T9060 005:163.063 JLINK_ReadReg(FPS13)
T9060 005:163.067 - 0.004ms returns 0x00000000
T9060 005:163.073 JLINK_ReadReg(FPS14)
T9060 005:163.078 - 0.004ms returns 0x00000000
T9060 005:163.084 JLINK_ReadReg(FPS15)
T9060 005:163.089 - 0.004ms returns 0xFFFFFFFF
T9060 005:163.094 JLINK_ReadReg(FPS16)
T9060 005:163.099 - 0.004ms returns 0x00000000
T9060 005:163.105 JLINK_ReadReg(FPS17)
T9060 005:163.109 - 0.004ms returns 0x00000000
T9060 005:163.115 JLINK_ReadReg(FPS18)
T9060 005:163.120 - 0.004ms returns 0x00000000
T9060 005:163.125 JLINK_ReadReg(FPS19)
T9060 005:163.130 - 0.004ms returns 0x00000000
T9060 005:163.136 JLINK_ReadReg(FPS20)
T9060 005:163.141 - 0.004ms returns 0x00000000
T9060 005:163.146 JLINK_ReadReg(FPS21)
T9060 005:163.151 - 0.004ms returns 0x00000000
T9060 005:163.157 JLINK_ReadReg(FPS22)
T9060 005:163.161 - 0.004ms returns 0x00000000
T9060 005:163.167 JLINK_ReadReg(FPS23)
T9060 005:163.172 - 0.004ms returns 0x00000000
T9060 005:163.177 JLINK_ReadReg(FPS24)
T9060 005:163.182 - 0.004ms returns 0x00000000
T9060 005:163.188 JLINK_ReadReg(FPS25)
T9060 005:163.193 - 0.004ms returns 0x00000000
T9060 005:163.198 JLINK_ReadReg(FPS26)
T9060 005:163.203 - 0.004ms returns 0x00000000
